
**** 03/27/23 14:23:01 *********** Evaluation PSpice (Nov 1999) **************

 * C:\Users\22886287\Documents\GitHub\Zaldef\Eletronica\Lab 1-1-2.sch


 ****     CIRCUIT DESCRIPTION


******************************************************************************




* Schematics Version 9.1 - Web Update 1
* Mon Mar 27 14:23:01 2023



** Analysis setup **
.tran 0s 100ms 0 10us
.OP 


* From [PSPICE NETLIST] section of pspiceev.ini:
.lib "nom.lib"

.INC "Lab 1-1-2.net"

**** INCLUDING "Lab 1-1-2.net" ****
* Schematics Netlist *



V_Vdc         $N_0001 0 12V
R_R1         $N_0001 $N_0002  1k  
D_D1         0 $N_0002 D1N4002 

**** RESUMING "Lab 1-1-2.cir" ****
.INC "Lab 1-1-2.als"



**** INCLUDING "Lab 1-1-2.als" ****
* Schematics Aliases *

.ALIASES
V_Vdc           Vdc(+=$N_0001 -=0 )
R_R1            R1(1=$N_0001 2=$N_0002 )
D_D1            D1(1=0 2=$N_0002 )
.ENDALIASES


**** RESUMING "Lab 1-1-2.cir" ****
.probe


.END

**** 03/27/23 14:23:01 *********** Evaluation PSpice (Nov 1999) **************

 * C:\Users\22886287\Documents\GitHub\Zaldef\Eletronica\Lab 1-1-2.sch


 ****     Diode MODEL PARAMETERS


******************************************************************************




               D1N4002         
          IS   14.110000E-09 
           N    1.984        
         ISR  100.000000E-12 
         IKF   94.81         
          BV  100.1          
         IBV   10            
          RS     .03389      
          TT    4.761000E-06 
         CJO   51.170000E-12 
          VJ     .3905       
           M     .2762       


**** 03/27/23 14:23:01 *********** Evaluation PSpice (Nov 1999) **************

 * C:\Users\22886287\Documents\GitHub\Zaldef\Eletronica\Lab 1-1-2.sch


 ****     SMALL SIGNAL BIAS SOLUTION       TEMPERATURE =   27.000 DEG C


******************************************************************************



 NODE   VOLTAGE     NODE   VOLTAGE     NODE   VOLTAGE     NODE   VOLTAGE


($N_0001)   12.0000                   ($N_0002)   12.0000                   




    VOLTAGE SOURCE CURRENTS
    NAME         CURRENT

    V_Vdc       -1.437E-08

    TOTAL POWER DISSIPATION   1.72E-07  WATTS


**** 03/27/23 14:23:01 *********** Evaluation PSpice (Nov 1999) **************

 * C:\Users\22886287\Documents\GitHub\Zaldef\Eletronica\Lab 1-1-2.sch


 ****     OPERATING POINT INFORMATION      TEMPERATURE =   27.000 DEG C


******************************************************************************






**** DIODES


NAME         D_D1      
MODEL        D1N4002   
ID          -1.44E-08 
VD          -1.20E+01 
REQ          4.42E+11 
CAP          1.97E-11 
**** 03/27/23 14:23:01 *********** Evaluation PSpice (Nov 1999) **************

 * C:\Users\22886287\Documents\GitHub\Zaldef\Eletronica\Lab 1-1-2.sch


 ****     INITIAL TRANSIENT SOLUTION       TEMPERATURE =   27.000 DEG C


******************************************************************************



 NODE   VOLTAGE     NODE   VOLTAGE     NODE   VOLTAGE     NODE   VOLTAGE


($N_0001)   12.0000                   ($N_0002)   12.0000                   




    VOLTAGE SOURCE CURRENTS
    NAME         CURRENT

    V_Vdc       -1.437E-08

    TOTAL POWER DISSIPATION   1.72E-07  WATTS



          JOB CONCLUDED

          TOTAL JOB TIME             .23
